
**** 04/03/19 21:58:40 ***** PSpice 16.6.0 (October 2012) ***** ID# 0 ********

 ** Profile: "SCHEMATIC1-bias"  [ F:\Mega\ponkin-prjs\OrCAD Pspice\isrc-pspicefiles\schematic1\bias.sim ] 


 ****     CIRCUIT DESCRIPTION


******************************************************************************




** Creating circuit file "bias.cir" 
** WARNING: THIS AUTOMATICALLY GENERATED FILE MAY BE OVERWRITTEN BY SUBSEQUENT SIMULATIONS

*Libraries: 
* Profile Libraries :
* Local Libraries :
* From [PSPICE NETLIST] section of C:\Users\D_LHEP_DESKTOP\AppData\Roaming\SPB_Data\cdssetup\OrCAD_PSpice/16.6.0/PSpice.ini file:
.lib "nom.lib" 

*Analysis directives: 
.TRAN  0 10ms 0 0.1ms 
.OPTIONS ADVCONV
.PROBE64 V(alias(*)) I(alias(*)) W(alias(*)) D(alias(*)) NOISE(alias(*)) 
.INC "..\SCHEMATIC1.net" 



**** INCLUDING SCHEMATIC1.net ****
* source ISRC
R_R1         0 N01285  1.1k  
R_R2         N01368 N01285  9.1k  
R_R4         0 N01368  1k  
V_V4         N01249 0  
+PULSE 0 0.1V 0 3us 3us 100us 200us
E_U3         N01368 0 VALUE {LIMIT(V(N01249,N01285)*1E6,-15V,+15V)}
V_V6         N08509 0 12
E_U4         N08658 0 VALUE {LIMIT(V(N08518,N08581)*1E6,-15V,+15V)}
R_R8         0 N08518  10R  
R_R9         N08518 N08509  220  
R_R10         0 N08581  1k  
R_R11         N08581 N08658  5k  
R_R         N09211 0  17R  
V_V7         N09211 0 5

**** RESUMING bias.cir ****
.END

**** 04/03/19 21:58:40 ***** PSpice 16.6.0 (October 2012) ***** ID# 0 ********

 ** Profile: "SCHEMATIC1-bias"  [ F:\Mega\ponkin-prjs\OrCAD Pspice\isrc-pspicefiles\schematic1\bias.sim ] 


 ****     INITIAL TRANSIENT SOLUTION       TEMPERATURE =   27.000 DEG C


******************************************************************************



 NODE   VOLTAGE     NODE   VOLTAGE     NODE   VOLTAGE     NODE   VOLTAGE


(N01249)    0.0000 (N01285)    0.0000 (N01368)    0.0000 (N08509)   12.0000     

(N08518)     .5217 (N08581)     .5217 (N08658)    3.1304 (N09211)    5.0000 




    VOLTAGE SOURCE CURRENTS
    NAME         CURRENT

    V_V4         0.000E+00
    V_V6        -5.217E-02
    V_V7        -2.941E-01

    TOTAL POWER DISSIPATION   2.10E+00  WATTS



          JOB CONCLUDED

**** 04/03/19 21:58:40 ***** PSpice 16.6.0 (October 2012) ***** ID# 0 ********

 ** Profile: "SCHEMATIC1-bias"  [ F:\Mega\ponkin-prjs\OrCAD Pspice\isrc-pspicefiles\schematic1\bias.sim ] 


 ****     JOB STATISTICS SUMMARY


******************************************************************************



  Total job time (using Solver 1)   =         .02
